
**** 06/19/25 12:49:44 ***** PSpice 24.1.0 (17 April 2025) **** ID# 0 ********

 ** Profile: "SCHEMATIC1-h"  [ F:\Gopal_work\Orcad_work\Noise_analysis\ckt_noise-pspicefiles\schematic1\h.sim ] 


 ****     CIRCUIT DESCRIPTION


******************************************************************************




** Creating circuit file "h.cir" 
** WARNING: THIS AUTOMATICALLY GENERATED FILE MAY BE OVERWRITTEN BY SUBSEQUENT SIMULATIONS

*Libraries: 
* Profile Libraries :
* Local Libraries :
* From [PSPICE NETLIST] section of C:\Users\Rahul Bhattacharya\AppData\Roaming\SPB_Data\cdssetup\OrCAD_PSpice\24.1.0\PSpice.ini file:
.lib "nom.lib" 

*Analysis directives: 
.TRAN  0 2m 0 1e-6 
.OPTIONS ADVCONV
.PROBE64 V(alias(*)) I(alias(*)) W(alias(*)) D(alias(*)) NOISE(alias(*)) 
.INC "..\SCHEMATIC1.net" 



**** INCLUDING SCHEMATIC1.net ****
* source CKT_NOISE
R_R1         IN N00307  1k TC=0,0 
R_R2         N00286 OUT  2k TC=0,0 
R_R3         0 OUT  4.7 TC=0,0 
R_R4         N00341 VDD  0.02 TC=0,0 
R_R5         N00307 N00286  2k TC=0,0 
C_C1         N00286 OUT  1n  TC=0,0 
V_V1         N00341 0 12
V_V2         0 VSS 12
X_U3         0 N00307 VDD VSS OUT LM741
V_V4         IN N01555  
+SIN 0 0.5 1K 0 0 0
X_V5         N01555 0 VRNDMN PARAMS: NVAL=0.015m

**** RESUMING h.cir ****
.END

**** 06/19/25 12:49:44 ***** PSpice 24.1.0 (17 April 2025) **** ID# 0 ********

 ** Profile: "SCHEMATIC1-h"  [ F:\Gopal_work\Orcad_work\Noise_analysis\ckt_noise-pspicefiles\schematic1\h.sim ] 


 ****     Diode MODEL PARAMETERS


******************************************************************************




               X_U3.x_lm741.dx X_U3.x_lm741.dy 
          IS  800.000000E-18  800.000000E-18 
          RS    1               1.000000E-03 
         CJO                   10.000000E-12 


**** 06/19/25 12:49:44 ***** PSpice 24.1.0 (17 April 2025) **** ID# 0 ********

 ** Profile: "SCHEMATIC1-h"  [ F:\Gopal_work\Orcad_work\Noise_analysis\ckt_noise-pspicefiles\schematic1\h.sim ] 


 ****     BJT MODEL PARAMETERS


******************************************************************************




               X_U3.x_lm741.qx 
               NPN             
       LEVEL    1            
          IS  800.000000E-18 
          BF   93.75         
          NF    1            
          BR    1            
          NR    1            
         ISS    0            
          RE    0            
          RC    0            
         CJE    0            
         VJE     .75         
         CJC    0            
         VJC     .75         
         MJC     .33         
        XCJC    1            
         CJS    0            
         VJS     .75         
          KF    0            
          AF    1            
          CN    2.42         
           D     .87         


**** 06/19/25 12:49:44 ***** PSpice 24.1.0 (17 April 2025) **** ID# 0 ********

 ** Profile: "SCHEMATIC1-h"  [ F:\Gopal_work\Orcad_work\Noise_analysis\ckt_noise-pspicefiles\schematic1\h.sim ] 


 ****     INITIAL TRANSIENT SOLUTION       TEMPERATURE =   27.000 DEG C


******************************************************************************



 NODE   VOLTAGE     NODE   VOLTAGE     NODE   VOLTAGE     NODE   VOLTAGE


(   IN) 17.40E-09  (  OUT) 414.9E-06  (  VDD)   12.0000  (  VSS)  -12.0000      

(N00286) 217.0E-06 (N00307) 19.18E-06 (N00341)   12.0000 (N01555) 17.40E-09     

(X_U3.x_lm741.6)-1.307E-06            (X_U3.x_lm741.7)     .0048                

(X_U3.x_lm741.8)     .0048            (X_U3.x_lm741.9)    0.0000                

(X_U3.x_lm741.10)    -.6077           (X_U3.x_lm741.11)   11.9600               

(X_U3.x_lm741.12)   11.9600           (X_U3.x_lm741.13)    -.5938               

(X_U3.x_lm741.14)    -.5938           (X_U3.x_lm741.53)   11.0000               

(X_U3.x_lm741.54)  -11.0000           (X_U3.x_lm741.90)     .0884               

(X_U3.x_lm741.91)   40.0000           (X_U3.x_lm741.92)  -40.0000               

(X_U3.x_lm741.99)-13.37E-06           




    VOLTAGE SOURCE CURRENTS
    NAME         CURRENT

    V_V1        -1.337E-03
    V_V2        -1.337E-03
    V_V4         1.916E-08
    X_U3.x_lm741.vb  -1.307E-11
    X_U3.x_lm741.vc   1.100E-11
    X_U3.x_lm741.ve   1.251E-11
    X_U3.x_lm741.vlim   8.837E-05
    X_U3.x_lm741.vlp  -3.991E-11
    X_U3.x_lm741.vln  -4.009E-11

    TOTAL POWER DISSIPATION   3.21E-02  WATTS



          JOB CONCLUDED

**** 06/19/25 12:49:44 ***** PSpice 24.1.0 (17 April 2025) **** ID# 0 ********

 ** Profile: "SCHEMATIC1-h"  [ F:\Gopal_work\Orcad_work\Noise_analysis\ckt_noise-pspicefiles\schematic1\h.sim ] 


 ****     JOB STATISTICS SUMMARY


******************************************************************************



  Total job time (using Solver 1)   =         .03
