
**** 07/08/25 11:02:34 ***** PSpice 24.1.0 (17 April 2025) **** ID# 0 ********

 ** Profile: "SCHEMATIC1-fgh"  [ f:\swati\orcad_projects\buck_converter-pspicefiles\schematic1\fgh.sim ] 


 ****     CIRCUIT DESCRIPTION


******************************************************************************




** Creating circuit file "fgh.cir" 
** WARNING: THIS AUTOMATICALLY GENERATED FILE MAY BE OVERWRITTEN BY SUBSEQUENT SIMULATIONS

*Libraries: 
* Profile Libraries :
* Local Libraries :
* From [PSPICE NETLIST] section of C:\Users\Rahul Bhattacharya\AppData\Roaming\SPB_Data\cdssetup\OrCAD_PSpice\24.1.0\PSpice.ini file:
.lib "nom.lib" 

*Analysis directives: 
.TRAN  0 1.5ms 0 530ns 
.OPTIONS ADVCONV
.PROBE64 V(alias(*)) I(alias(*)) W(alias(*)) D(alias(*)) NOISE(alias(*)) 
.INC "..\SCHEMATIC1.net" 



**** INCLUDING SCHEMATIC1.net ****
* source BUCK_CONVERTER
M_M1         N00261 N00416 N00296 N00296 IRF540
L_L1         N00296 N00310  25uH  
D_D1         0 N00296 Dbreak 
R_R1         N00310 N00314  0.017 TC=0,0 
R_R2         N00314 VBUCK  0.05 TC=0,0 
R_R3         N00292 VBUCK  0.01 TC=0,0 
R_R4         0 VBUCK  6.8 TC=0,0 
C_C1         0 N00292  210u  TC=0,0 
E_E1         N01270 0 POLY(1) N00314 VBUCK 0.0 1
V_V1         N00261 0 25
E_E2         N00416 0 VALUE { if(V(N00481)>1.5,30,0) }
C_C2         0 N00481  1p  TC=0,0 
C_C3         0 N00416  1p  TC=0,0 
E_E3         N00797 0 VALUE { if(V(N01282)>V( VCONTROL),3.5,0) }
X_U1         N00873 N00809 N00834 $G_DPWR $G_DGND NOR2
X_U2         N00834 N00797 N00809 $G_DPWR $G_DGND NOR2
X_U3         N00873 N00834 N00481 $G_DPWR $G_DGND NOR2
V_V2         N00873 0  
+PULSE 0.1 3.5 0 5n 5n 100n 5u
C_C4         0 N00481  1p  TC=0,0 
E_SUM1         N01282 0 VALUE {V(N01270)+V(N01294)}
R_R5         0 N01294  1k TC=0,0 
R_R6         N01659 VCONTROL  10e6 TC=0,0 
R_R7         N01659 N01717  100k TC=0,0 
C_C5         N01717 VCONTROL  2n  TC=0,0 
C_C6         N01659 VCONTROL  30p  TC=0,0 
X_U4A         VREF N01659 N01852 N01837 VCONTROL LM324
R_R8         N01978 VBUCK  9.76k TC=0,0 
R_R9         0 N01978  3.25k TC=0,0 
R_R10         N01659 N01978  1k TC=0,0 
V_V4         0 N01837 12
V_V5         N01852 0 12
V_V6         VREF 0  
+PULSE 0 2.5 0 4m 2m 1 2
R_R11         0 N00809  1Meg TC=0,0 
I_I1         N01294 0 DC 0Adc AC 0Aac
+PULSE 0 -278u 100n 4.95u 2n 2n 5u

**** RESUMING fgh.cir ****
.END


**** Generated AtoD and DtoA Interfaces ****

*
* Analog/Digital interface for node N00481
*
* Moving X_U3.U1:OUT1 from analog node N00481 to new digital node N00481$DtoA
X$N00481_DtoA1
+ N00481$DtoA
+ N00481
+ $G_DPWR
+ $G_DGND
+ DtoAdefault
+       PARAMS: DRVH=  50     DRVL=  50     CAPACITANCE=   0     
*
* Analog/Digital interface for node N00797
*
* Moving X_U2.U1:IN2 from analog node N00797 to new digital node N00797$AtoD
X$N00797_AtoD1
+ N00797
+ N00797$AtoD
+ $G_DPWR
+ $G_DGND
+ AtoDdefault
+       PARAMS: CAPACITANCE=   0     
*
* Analog/Digital interface for node N00873
*
* Moving X_U3.U1:IN1 from analog node N00873 to new digital node N00873$AtoD
X$N00873_AtoD1
+ N00873
+ N00873$AtoD
+ $G_DPWR
+ $G_DGND
+ AtoDdefault
+       PARAMS: CAPACITANCE=   0     
* Moving X_U1.U1:IN1 from analog node N00873 to new digital node N00873$AtoD2
X$N00873_AtoD2
+ N00873
+ N00873$AtoD2
+ $G_DPWR
+ $G_DGND
+ AtoDdefault
+       PARAMS: CAPACITANCE=   0     
*
* Analog/Digital interface for node N00809
*
* Moving X_U1.U1:IN2 from analog node N00809 to new digital node N00809$AtoD
X$N00809_AtoD1
+ N00809
+ N00809$AtoD
+ $G_DPWR
+ $G_DGND
+ AtoDdefault
+       PARAMS: CAPACITANCE=   0     
* Moving X_U2.U1:OUT1 from analog node N00809 to new digital node N00809$DtoA
X$N00809_DtoA1
+ N00809$DtoA
+ N00809
+ $G_DPWR
+ $G_DGND
+ DtoAdefault
+       PARAMS: DRVH=  50     DRVL=  50     CAPACITANCE=   0     
*
* Analog/Digital interface power supply subcircuits
*
X$DIGIFPWR 0 DIGIFPWR


**** 07/08/25 11:02:34 ***** PSpice 24.1.0 (17 April 2025) **** ID# 0 ********

 ** Profile: "SCHEMATIC1-fgh"  [ f:\swati\orcad_projects\buck_converter-pspicefiles\schematic1\fgh.sim ] 


 ****     Diode MODEL PARAMETERS


******************************************************************************




               Dbreak          X_U4A.dx        X_U4A.dy        
          IS   10.000000E-15  800.000000E-18  800.000000E-18 
          RS     .1             1               1.000000E-03 
         CJO  100.000000E-15                   10.000000E-12 


**** 07/08/25 11:02:34 ***** PSpice 24.1.0 (17 April 2025) **** ID# 0 ********

 ** Profile: "SCHEMATIC1-fgh"  [ f:\swati\orcad_projects\buck_converter-pspicefiles\schematic1\fgh.sim ] 


 ****     BJT MODEL PARAMETERS


******************************************************************************




               X_U4A.qx        
               PNP             
       LEVEL    1            
          IS  800.000000E-18 
          BF  166.7          
          NF    1            
          BR    1            
          NR    1            
         ISS    0            
          RE    0            
          RC    0            
         CJE    0            
         VJE     .75         
         CJC    0            
         VJC     .75         
         MJC     .33         
        XCJC    1            
         CJS    0            
         VJS     .75         
          KF    0            
          AF    1            
          CN    2.2          
           D     .52         


**** 07/08/25 11:02:34 ***** PSpice 24.1.0 (17 April 2025) **** ID# 0 ********

 ** Profile: "SCHEMATIC1-fgh"  [ f:\swati\orcad_projects\buck_converter-pspicefiles\schematic1\fgh.sim ] 


 ****     MOSFET MODEL PARAMETERS


******************************************************************************




               IRF540          
               NMOS            
       LEVEL    3            
           L    2.000000E-06 
           W     .94         
         VTO    3.136        
          KP   20.710000E-06 
       GAMMA    0            
         PHI     .6          
      LAMBDA    0            
          RD     .02252      
          RS     .02134      
          RG    5.557        
         RDS  444.400000E+03 
          IS    2.859000E-12 
          JS    0            
          PB     .8          
        PBSW     .8          
         CBD    2.408000E-09 
          CJ    0            
        CJSW    0            
          TT  142.000000E-09 
        CGSO    1.153000E-09 
        CGDO  445.700000E-12 
        CGBO    0            
         TOX  100.000000E-09 
          XJ    0            
       UCRIT   10.000000E+03 
       DELTA    0            
         ETA    0            
      DIOMOD    1            
         VFB    0            
        LETA    0            
        WETA    0            
          U0    0            
        TEMP    0            
         VDD    5            
       XPART    0            


**** 07/08/25 11:02:34 ***** PSpice 24.1.0 (17 April 2025) **** ID# 0 ********

 ** Profile: "SCHEMATIC1-fgh"  [ f:\swati\orcad_projects\buck_converter-pspicefiles\schematic1\fgh.sim ] 


 ****     Current Controlled Switch MODEL PARAMETERS


******************************************************************************




               X_U4A.sw2       X_U4A.sw1       X_U4A.sw3       X_U4A.sw4       
         RON    1               1               1               1            
        ROFF   10.000000E+06   10.000000E+06   10.000000E+06   10.000000E+06 
         ION    0              -1.000000E-06   -1.000000E-06    0            
        IOFF   -1.000000E-06    0               0              -1.000000E-06 


**** 07/08/25 11:02:34 ***** PSpice 24.1.0 (17 April 2025) **** ID# 0 ********

 ** Profile: "SCHEMATIC1-fgh"  [ f:\swati\orcad_projects\buck_converter-pspicefiles\schematic1\fgh.sim ] 


 ****     Digital Input MODEL PARAMETERS


******************************************************************************




               DIN74           
      S0NAME 0               
       S0TSW    3.500000E-09 
       S0RLO    7.13         
       S0RHI  389            
      S1NAME 1               
       S1TSW    5.500000E-09 
       S1RLO  467            
       S1RHI  200            
      S2NAME X               
       S2TSW    3.500000E-09 
       S2RLO   42.9          
       S2RHI  116            
      S3NAME R               
       S3TSW    3.500000E-09 
       S3RLO   42.9          
       S3RHI  116            
      S4NAME F               
       S4TSW    3.500000E-09 
       S4RLO   42.9          
       S4RHI  116            
      S5NAME Z               
       S5TSW    3.500000E-09 
       S5RLO  200.000000E+03 
       S5RHI  200.000000E+03 


**** 07/08/25 11:02:34 ***** PSpice 24.1.0 (17 April 2025) **** ID# 0 ********

 ** Profile: "SCHEMATIC1-fgh"  [ f:\swati\orcad_projects\buck_converter-pspicefiles\schematic1\fgh.sim ] 


 ****     Digital Output MODEL PARAMETERS


******************************************************************************




               DO74            
    TIMESTEP  100.000000E-12 
      S0NAME X               
       S0VHI    2            
       S0VLO     .8          
      S1NAME 0               
       S1VHI     .8          
       S1VLO   -1.5          
      S2NAME R               
       S2VHI    1.4          
       S2VLO     .8          
      S3NAME R               
       S3VHI    2            
       S3VLO    1.3          
      S4NAME X               
       S4VHI    2            
       S4VLO     .8          
      S5NAME 1               
       S5VHI    7            
       S5VLO    2            
      S6NAME F               
       S6VHI    2            
       S6VLO    1.3          
      S7NAME F               
       S7VHI    1.4          
       S7VLO     .8          


**** 07/08/25 11:02:34 ***** PSpice 24.1.0 (17 April 2025) **** ID# 0 ********

 ** Profile: "SCHEMATIC1-fgh"  [ f:\swati\orcad_projects\buck_converter-pspicefiles\schematic1\fgh.sim ] 


 ****     Digital Gate MODEL PARAMETERS


******************************************************************************




               D_PLD_GATE      
      TPLHMN    0            
      TPLHTY    0            
      TPLHMX    0            
      TPHLMN    0            
      TPHLTY    0            
      TPHLMX    0            


**** 07/08/25 11:02:34 ***** PSpice 24.1.0 (17 April 2025) **** ID# 0 ********

 ** Profile: "SCHEMATIC1-fgh"  [ f:\swati\orcad_projects\buck_converter-pspicefiles\schematic1\fgh.sim ] 


 ****     Digital IO  MODEL PARAMETERS


******************************************************************************




               IO_PLD          IO_DFT          
       AtoD1                 AtoD_STD        
       AtoD2                 AtoD_STD_NX     
       AtoD3                 AtoD_STD        
       AtoD4                 AtoD_STD_NX     
       DtoA1                 DtoA_STD        
       DtoA2                 DtoA_STD        
       DtoA3                 DtoA_STD        
       DtoA4                 DtoA_STD        
       TPWRT  100.000000E+03  100.000000E+03 


**** 07/08/25 11:02:34 ***** PSpice 24.1.0 (17 April 2025) **** ID# 0 ********

 ** Profile: "SCHEMATIC1-fgh"  [ f:\swati\orcad_projects\buck_converter-pspicefiles\schematic1\fgh.sim ] 


 ****     INITIAL TRANSIENT SOLUTION       TEMPERATURE =   27.000 DEG C


******************************************************************************



 NODE   VOLTAGE     NODE   VOLTAGE     NODE   VOLTAGE     NODE   VOLTAGE


( VREF)    0.0000  (VBUCK) 382.2E-06  (N00261)   25.0000 (N00292) 382.2E-06     

(N00296) 386.0E-06 (N00310) 386.0E-06 (N00314) 385.0E-06 (N00416)    0.0000     

(N00481)     .0900 (N00797)    3.5000 (N00809)     .0900 (N00873)     .1000     

(N01270) 2.813E-06 (N01282) 2.813E-06 (N01294)    0.0000 (N01659)-180.0E-06     

(N01717)-180.0E-06 (N01837)  -12.0000 (N01852)   12.0000 (N01978)-99.86E-06     

($G_DGND)    0.0000                   ($G_DPWR)    5.0000                       

(X_U4A.6) 235.8E-06                   (X_U4A.7)   -1.2508                       

(X_U4A.8)   -1.2508                   (X_U4A.9)    0.0000                       

(X_U4A.a)   12.0000                   (X_U4A.b)-4.551E-06                       

(VCONTROL)   -1.2508                  (X_U4A.10)     .6076                      

(X_U4A.11)  -11.9600                  (X_U4A.12)  -11.9600                      

(X_U4A.13)     .5937                  (X_U4A.14)     .5937                      

(X_U4A.53)   10.5000                  (X_U4A.54)  -11.1780                      

(X_U4A.90)-125.1E-06                  (X_U4A.91)   40.0000                      

(X_U4A.92)  -40.0000                  (X_U4A.99)    0.0000                  



 DGTL NODE : STATE  DGTL NODE : STATE  DGTL NODE : STATE  DGTL NODE : STATE


(N00481$DtoA) : 0  (N00873$AtoD2) : 0                    (N00809$DtoA) : 0      

(N00873$AtoD) : 0  (N00797$AtoD) : 1  (N00809$AtoD) : 0  (  N00834) : 1     




    VOLTAGE SOURCE CURRENTS
    NAME         CURRENT

    V_V1        -5.625E-05
    V_V2        -2.000E-13
    V_V4        -2.660E-03
    V_V5        -2.660E-03
    V_V6         4.474E-08
    X_U4A.vb     2.358E-09
    X_U4A.vc     1.175E-11
    X_U4A.ve     1.146E-11
    X_U4A.vlim  -1.251E-07
    X_U4A.vlp   -4.000E-11
    X_U4A.vln   -4.000E-11
    X$DIGIFPWR.VDPWR  -2.525E-02
    X$DIGIFPWR.VDGND  -5.090E-06

    TOTAL POWER DISSIPATION   1.91E-01  WATTS


**** 07/08/25 11:02:34 ***** PSpice 24.1.0 (17 April 2025) **** ID# 0 ********

 ** Profile: "SCHEMATIC1-fgh"  [ f:\swati\orcad_projects\buck_converter-pspicefiles\schematic1\fgh.sim ] 


 ****     SIMULATION ERRORS


******************************************************************************




DIGITAL Message ID#1 (WARNING):
AMBIGUITY CONVERGENCE Hazard at time 1.1ns
  Device: X_U3.U1
  NODEs: N00873$AtoD (IN1),
         N00834 (IN2) => N00481$DtoA (OUT1)  

DIGITAL Message ID#2 (SERIOUS):
PERSISTENT Hazard at time 1.1ns
  On D/A Node "N00481$DtoA"
  See Message ID#1 for probable cause.

DIGITAL Message ID#3 (SERIOUS):
PERSISTENT Hazard at time 1.1ns
  Device: On D/A interface X$N00481_DtoA1.N1, "N00481$DtoA"
  See Message ID#1 for probable cause.

DIGITAL Message ID#4 (WARNING):
AMBIGUITY CONVERGENCE Hazard at time 107.3ns
  Device: X_U3.U1
  NODEs: N00873$AtoD (IN1),
         N00834 (IN2) => N00481$DtoA (OUT1)  

DIGITAL Message ID#5 (SERIOUS):
PERSISTENT Hazard at time 107.3ns
  On D/A Node "N00481$DtoA"
  See Message ID#4 for probable cause.

DIGITAL Message ID#6 (SERIOUS):
PERSISTENT Hazard at time 107.3ns
  Device: On D/A interface X$N00481_DtoA1.N1, "N00481$DtoA"
  See Message ID#4 for probable cause.

DIGITAL Message ID#7 (SERIOUS):
PERSISTENT Hazard at time 109ns
  On D/A Node "N00481$DtoA"
  See Message ID#4 for probable cause.

DIGITAL Message ID#8 (WARNING):
AMBIGUITY CONVERGENCE Hazard at time 5.0011us
  Device: X_U3.U1
  NODEs: N00873$AtoD (IN1),
         N00834 (IN2) => N00481$DtoA (OUT1)  

DIGITAL Message ID#9 (SERIOUS):
PERSISTENT Hazard at time 5.0011us
  On D/A Node "N00481$DtoA"
  See Message ID#8 for probable cause.

DIGITAL Message ID#10 (SERIOUS):
PERSISTENT Hazard at time 5.0011us
  Device: On D/A interface X$N00481_DtoA1.N1, "N00481$DtoA"
  See Message ID#8 for probable cause.

DIGITAL Message ID#11 (WARNING):
AMBIGUITY CONVERGENCE Hazard at time 5.1073us
  Device: X_U3.U1
  NODEs: N00873$AtoD (IN1),
         N00834 (IN2) => N00481$DtoA (OUT1)  

DIGITAL Message ID#12 (SERIOUS):
PERSISTENT Hazard at time 5.1073us
  On D/A Node "N00481$DtoA"
  See Message ID#11 for probable cause.

DIGITAL Message ID#13 (SERIOUS):
PERSISTENT Hazard at time 5.1073us
  Device: On D/A interface X$N00481_DtoA1.N1, "N00481$DtoA"
  See Message ID#11 for probable cause.

DIGITAL Message ID#14 (SERIOUS):
PERSISTENT Hazard at time 5.109us
  On D/A Node "N00481$DtoA"
  See Message ID#11 for probable cause.

DIGITAL Message ID#15 (WARNING):
AMBIGUITY CONVERGENCE Hazard at time 10.0011us
  Device: X_U3.U1
  NODEs: N00873$AtoD (IN1),
         N00834 (IN2) => N00481$DtoA (OUT1)  

DIGITAL Message ID#16 (SERIOUS):
PERSISTENT Hazard at time 10.0011us
  On D/A Node "N00481$DtoA"
  See Message ID#15 for probable cause.

DIGITAL Message ID#17 (SERIOUS):
PERSISTENT Hazard at time 10.0011us
  Device: On D/A interface X$N00481_DtoA1.N1, "N00481$DtoA"
  See Message ID#15 for probable cause.

DIGITAL Message ID#18 (WARNING):
AMBIGUITY CONVERGENCE Hazard at time 10.1073us
  Device: X_U3.U1
  NODEs: N00873$AtoD (IN1),
         N00834 (IN2) => N00481$DtoA (OUT1)  

DIGITAL Message ID#19 (SERIOUS):
PERSISTENT Hazard at time 10.1073us
  On D/A Node "N00481$DtoA"
  See Message ID#18 for probable cause.

DIGITAL Message ID#20 (SERIOUS):
PERSISTENT Hazard at time 10.1073us
  Device: On D/A interface X$N00481_DtoA1.N1, "N00481$DtoA"
  See Message ID#18 for probable cause.

DIGITAL Message ID#21 (SERIOUS):
PERSISTENT Hazard at time 10.109us
  On D/A Node "N00481$DtoA"
  See Message ID#18 for probable cause.

DIGITAL Message ID#22 (WARNING):
AMBIGUITY CONVERGENCE Hazard at time 15.0011us
  Device: X_U3.U1
  NODEs: N00873$AtoD (IN1),
         N00834 (IN2) => N00481$DtoA (OUT1)  

DIGITAL Message ID#23 (SERIOUS):
PERSISTENT Hazard at time 15.0011us
  On D/A Node "N00481$DtoA"
  See Message ID#22 for probable cause.

DIGITAL Message ID#24 (SERIOUS):
PERSISTENT Hazard at time 15.0011us
  Device: On D/A interface X$N00481_DtoA1.N1, "N00481$DtoA"
  See Message ID#22 for probable cause.

DIGITAL Message ID#25 (WARNING):
AMBIGUITY CONVERGENCE Hazard at time 15.1073us
  Device: X_U3.U1
  NODEs: N00873$AtoD (IN1),
         N00834 (IN2) => N00481$DtoA (OUT1)  

DIGITAL Message ID#26 (SERIOUS):
PERSISTENT Hazard at time 15.1073us
  On D/A Node "N00481$DtoA"
  See Message ID#25 for probable cause.

DIGITAL Message ID#27 (SERIOUS):
PERSISTENT Hazard at time 15.1073us
  Device: On D/A interface X$N00481_DtoA1.N1, "N00481$DtoA"
  See Message ID#25 for probable cause.

DIGITAL Message ID#28 (SERIOUS):
PERSISTENT Hazard at time 15.109us
  On D/A Node "N00481$DtoA"
  See Message ID#25 for probable cause.

DIGITAL Message ID#29 (WARNING):
AMBIGUITY CONVERGENCE Hazard at time 20.0011us
  Device: X_U3.U1
  NODEs: N00873$AtoD (IN1),
         N00834 (IN2) => N00481$DtoA (OUT1)  

DIGITAL Message ID#30 (SERIOUS):
PERSISTENT Hazard at time 20.0011us
  On D/A Node "N00481$DtoA"
  See Message ID#29 for probable cause.

DIGITAL Message ID#31 (SERIOUS):
PERSISTENT Hazard at time 20.0011us
  Device: On D/A interface X$N00481_DtoA1.N1, "N00481$DtoA"
  See Message ID#29 for probable cause.

DIGITAL Message ID#32 (WARNING):
AMBIGUITY CONVERGENCE Hazard at time 20.1073us
  Device: X_U3.U1
  NODEs: N00873$AtoD (IN1),
         N00834 (IN2) => N00481$DtoA (OUT1)  

DIGITAL Message ID#33 (SERIOUS):
PERSISTENT Hazard at time 20.1073us
  On D/A Node "N00481$DtoA"
  See Message ID#32 for probable cause.

DIGITAL Message ID#34 (SERIOUS):
PERSISTENT Hazard at time 20.1073us
  Device: On D/A interface X$N00481_DtoA1.N1, "N00481$DtoA"
  See Message ID#32 for probable cause.

DIGITAL Message ID#35 (SERIOUS):
PERSISTENT Hazard at time 20.109us
  On D/A Node "N00481$DtoA"
  See Message ID#32 for probable cause.

DIGITAL Message ID#36 (WARNING):
AMBIGUITY CONVERGENCE Hazard at time 25.0011us
  Device: X_U3.U1
  NODEs: N00873$AtoD (IN1),
         N00834 (IN2) => N00481$DtoA (OUT1)  

DIGITAL Message ID#37 (SERIOUS):
PERSISTENT Hazard at time 25.0011us
  On D/A Node "N00481$DtoA"
  See Message ID#36 for probable cause.

DIGITAL Message ID#38 (SERIOUS):
PERSISTENT Hazard at time 25.0011us
  Device: On D/A interface X$N00481_DtoA1.N1, "N00481$DtoA"
  See Message ID#36 for probable cause.

DIGITAL Message ID#39 (WARNING):
AMBIGUITY CONVERGENCE Hazard at time 25.1073us
  Device: X_U3.U1
  NODEs: N00873$AtoD (IN1),
         N00834 (IN2) => N00481$DtoA (OUT1)  

DIGITAL Message ID#40 (SERIOUS):
PERSISTENT Hazard at time 25.1073us
  On D/A Node "N00481$DtoA"
  See Message ID#39 for probable cause.

DIGITAL Message ID#41 (SERIOUS):
